
T4258 000:064 SEGGER J-Link V6.10i Log File (0010ms, 0034ms total)
T4258 000:064 DLL Compiled: Oct 25 2016 19:31:51 (0010ms, 0034ms total)
T4258 000:064 Logging started @ 2017-05-16 14:53 (0010ms, 0034ms total)
T4258 000:074 JLINK_SetWarnOutHandler(...) (0000ms, 0034ms total)
T4258 000:074 JLINK_OpenEx(...)
Firmware: J-Link ARM V8 compiled Nov 28 2014 13:44:46
Hardware: V8.00
S/N: 304439649
Feature(s): RDI,FlashDL,FlashBP,JFlash,GDBFULLWEBSRV Webserver running on local port 19080 (0019ms, 0053ms total)
T4258 000:074   returns O.K. (0019ms, 0053ms total)
T4258 000:093 JLINK_SetErrorOutHandler(...) (0000ms, 0053ms total)
T4258 000:093 JLINK_ExecCommand("ProjectFile = "C:\Users\ALEX.DON.SCOFIELD\Desktop\main_board\main_board\AutoAim_RTOS\MDK-ARM\JLinkSettings.ini"", ...).   returns 0x00 (0108ms, 0161ms total)
T4258 000:203 JLINK_ExecCommand("Device = STM32F407ZGTx", ...). Device "STM32F407ZG" selected.  returns 0x00 (0002ms, 0163ms total)
T4258 000:205 JLINK_ExecCommand("DisableConnectionTimeout", ...).   returns 0x01 (0000ms, 0163ms total)
T4258 000:205 JLINK_GetHardwareVersion()  returns 0x13880 (0000ms, 0163ms total)
T4258 000:205 JLINK_GetDLLVersion()  returns 61009 (0000ms, 0163ms total)
T4258 000:205 JLINK_GetFirmwareString(...) (0000ms, 0163ms total)
T4258 000:223 JLINK_GetDLLVersion()  returns 61009 (0000ms, 0163ms total)
T4258 000:223 JLINK_GetCompileDateTime() (0000ms, 0163ms total)
T4258 000:226 JLINK_GetFirmwareString(...) (0000ms, 0163ms total)
T4258 000:229 JLINK_GetHardwareVersion()  returns 0x13880 (0000ms, 0163ms total)
T4258 000:242 JLINK_TIF_Select(JLINKARM_TIF_JTAG)  returns 0x00 (0006ms, 0169ms total)
T4258 000:248 JLINK_SetSpeed(5000) (0001ms, 0170ms total)
T4258 000:249 JLINK_GetIdData(...) >0x2F8 JTAG>TotalIRLen = 9, IRPrint = 0x0011 >0x30 JTAG> >0x410 JTAG> >0x40 JTAG> >0x40 JTAG> >0x40 JTAG> >0x30 JTAG> >0x40 JTAG> >0x40 JTAG> >0x40 JTAG> >0x40 JTAG> >0x40 JTAG> >0x40 JTAG> >0x40 JTAG> >0x40 JTAG> >0x40 JTAG> >0x40 JTAG> >0x40 JTAG> >0x40 JTAG> >0x40 JTAG> >0x40 JTAG> >0x40 JTAG> >0x40 JTAG> >0x40 JTAG> >0x40 JTAG> >0x40 JTAG> >0x40 JTAG> >0x40 JTAG> >0x40 JTAG> >0x40 JTAG> >0x40 JTAG> >0x2F8 JTAG>TotalIRLen = 9, IRPrint = 0x0011 >0x30 JTAG>
 >0x410 JTAG> >0x70 JTAG> >0x50 JTAG> >0x40 JTAG> >0x50 JTAG>AP-IDR: 0x24770011, Type: AHB-APStart searching for Cortex-M ROM table with ROMTable[0] @ 0xE00FF000.ROMTable[1]: Cortex-M ROM table found. >0x80 JTAG> >0x40 JTAG> >0x30 JTAG> >0x40 JTAG> >0x40 JTAG> >0x30 JTAG> >0x40 JTAG> >0x50 JTAG>Found Cortex-M4 r0p1, Little endian. -- CPU_ReadMem(4 bytes @ 0xE000EDF0) -- CPU_WriteMem(4 bytes @ 0xE000EDF0) -- CPU_ReadMem(4 bytes @ 0xE0002000)FPUnit: 6 code (BP) slots and 2 literal slots
 -- CPU_ReadMem(4 bytes @ 0xE000EDFC) -- CPU_WriteMem(4 bytes @ 0xE000EDFC) -- CPU_ReadMem(4 bytes @ 0xE0001000) -- CPU_WriteMem(4 bytes @ 0xE0001000) -- CPU_ReadMem(4 bytes @ 0xE000ED88) -- CPU_WriteMem(4 bytes @ 0xE000ED88) -- CPU_ReadMem(4 bytes @ 0xE000ED88) -- CPU_WriteMem(4 bytes @ 0xE000ED88)CoreSight components:ROMTbl 0 @ E00FF000 -- CPU_ReadMem(16 bytes @ 0xE00FF000) -- CPU_ReadMem(16 bytes @ 0xE000EFF0) -- CPU_ReadMem(16 bytes @ 0xE000EFE0)
ROMTbl 0 [0]: FFF0F000, CID: B105E00D, PID: 000BB00C SCS -- CPU_ReadMem(16 bytes @ 0xE0001FF0) -- CPU_ReadMem(16 bytes @ 0xE0001FE0)ROMTbl 0 [1]: FFF02000, CID: B105E00D, PID: 003BB002 DWT -- CPU_ReadMem(16 bytes @ 0xE0002FF0) -- CPU_ReadMem(16 bytes @ 0xE0002FE0)ROMTbl 0 [2]: FFF03000, CID: B105E00D, PID: 002BB003 FPB -- CPU_ReadMem(16 bytes @ 0xE0000FF0) -- CPU_ReadMem(16 bytes @ 0xE0000FE0)ROMTbl 0 [3]: FFF01000, CID: B105E00D, PID: 003BB001 ITM -- CPU_ReadMem(16 bytes @ 0xE00FF010)
 -- CPU_ReadMem(16 bytes @ 0xE0040FF0) -- CPU_ReadMem(16 bytes @ 0xE0040FE0)ROMTbl 0 [4]: FFF41000, CID: B105900D, PID: 000BB9A1 TPIU -- CPU_ReadMem(16 bytes @ 0xE0041FF0) -- CPU_ReadMem(16 bytes @ 0xE0041FE0)ROMTbl 0 [5]: FFF42000, CID: B105900D, PID: 000BB925 ETM ScanLen=9 NumDevices=2 aId[0]=0x4BA00477 aIrRead[0]=0 aScanLen[0]=0 aScanRead[0]=0 (0122ms, 0292ms total)
T4258 000:372 JLINK_JTAG_GetDeviceID(DeviceIndex = 0)  returns 0x4BA00477 (0000ms, 0292ms total)
T4258 000:372 JLINK_JTAG_GetDeviceInfo(DeviceIndex = 0)  returns 0x00 (0000ms, 0292ms total)
T4258 000:372 JLINK_JTAG_GetDeviceID(DeviceIndex = 1)  returns 0x6413041 (0000ms, 0292ms total)
T4258 000:372 JLINK_JTAG_GetDeviceInfo(DeviceIndex = 1)  returns 0x00 (0000ms, 0292ms total)
T4258 000:372 JLINK_GetDLLVersion()  returns 61009 (0000ms, 0292ms total)
T4258 000:372 JLINK_CORE_GetFound()  returns 0xE0000FF (0000ms, 0292ms total)
T4258 000:372 JLINK_GetDebugInfo(0x100) -- Value=0xE00FF003  returns 0x00 (0000ms, 0292ms total)
T4258 000:375 JLINK_GetDebugInfo(0x100) -- Value=0xE00FF003  returns 0x00 (0000ms, 0292ms total)
T4258 000:375 JLINK_GetDebugInfo(0x101) -- Value=0xE0041000  returns 0x00 (0000ms, 0292ms total)
T4258 000:375 JLINK_GetDebugInfo(0x102) -- Value=0x00000000  returns 0x00 (0000ms, 0292ms total)
T4258 000:375 JLINK_GetDebugInfo(0x103) -- Value=0xE0040000  returns 0x00 (0001ms, 0293ms total)
T4258 000:376 JLINK_GetDebugInfo(0x104) -- Value=0xE0000000  returns 0x00 (0000ms, 0293ms total)
T4258 000:376 JLINK_GetDebugInfo(0x105) -- Value=0xE0001000  returns 0x00 (0000ms, 0293ms total)
T4258 000:376 JLINK_GetDebugInfo(0x106) -- Value=0xE0002000  returns 0x00 (0000ms, 0293ms total)
T4258 000:376 JLINK_GetDebugInfo(0x107) -- Value=0xE000E000  returns 0x00 (0000ms, 0293ms total)
T4258 000:376 JLINK_GetDebugInfo(0x10C) -- Value=0xE000EDF0  returns 0x00 (0000ms, 0293ms total)
T4258 000:376 JLINK_ReadMemU32(0xE000EF40, 0x0001 Items, ...) -- CPU is running -- CPU_ReadMem(4 bytes @ 0xE000EF40) - Data: 21 00 11 10  returns 0x01 (0001ms, 0294ms total)
T4258 000:377 JLINK_ReadMemU32(0xE000EF44, 0x0001 Items, ...) -- CPU is running -- CPU_ReadMem(4 bytes @ 0xE000EF44) - Data: 11 00 00 11  returns 0x01 (0000ms, 0294ms total)
T4258 000:377 JLINK_ReadMemU32(0xE000ED00, 0x0001 Items, ...) -- CPU is running -- CPU_ReadMem(4 bytes @ 0xE000ED00) - Data: 41 C2 0F 41  returns 0x01 (0001ms, 0295ms total)
T4258 000:378 JLINK_SetResetType(JLINKARM_RESET_TYPE_NORMAL)  returns JLINKARM_RESET_TYPE_NORMAL (0000ms, 0295ms total)
T4258 000:378 JLINK_Reset() -- CPU is running -- CPU_WriteMem(4 bytes @ 0xE000EDF0) -- CPU is running -- CPU_WriteMem(4 bytes @ 0xE000EDFC) -- CPU is running -- CPU_WriteMem(4 bytes @ 0xE000ED0C) -- CPU is running -- CPU_ReadMem(4 bytes @ 0xE000EDF0) -- CPU is running -- CPU_ReadMem(4 bytes @ 0xE000EDF0) -- CPU is running -- CPU_WriteMem(4 bytes @ 0xE000EDF0) -- CPU is running -- CPU_WriteMem(4 bytes @ 0xE000EDFC) -- CPU is running -- CPU_ReadMem(4 bytes @ 0xE000EDF0) >0x80 JTAG> >0x40 JTAG> >0x30 JTAG>
 >0x40 JTAG> >0x50 JTAG> >0x40 JTAG> -- CPU_WriteMem(4 bytes @ 0xE000EDFC) -- CPU_WriteMem(4 bytes @ 0xE0001028) -- CPU_WriteMem(4 bytes @ 0xE0001038) -- CPU_WriteMem(4 bytes @ 0xE0001048) -- CPU_WriteMem(4 bytes @ 0xE0001058) -- CPU_WriteMem(4 bytes @ 0xE0002000) -- CPU_ReadMem(4 bytes @ 0xE000EDFC) -- CPU_ReadMem(4 bytes @ 0xE0001000) (0044ms, 0339ms total)
T4258 000:422 JLINK_Halt()  returns 0x00 (0000ms, 0339ms total)
T4258 000:422 JLINK_IsHalted()  returns TRUE (0000ms, 0339ms total)
T4258 000:422 JLINK_ReadMemU32(0xE000EDF0, 0x0001 Items, ...) -- CPU_ReadMem(4 bytes @ 0xE000EDF0) - Data: 03 00 03 00  returns 0x01 (0001ms, 0340ms total)
T4258 000:423 JLINK_WriteU32(0xE000EDF0, 0xA05F0003) -- CPU_WriteMem(4 bytes @ 0xE000EDF0)  returns 0x00 (0001ms, 0341ms total)
T4258 000:424 JLINK_WriteU32(0xE000EDFC, 0x01000000) -- CPU_WriteMem(4 bytes @ 0xE000EDFC)  returns 0x00 (0001ms, 0342ms total)
T4258 000:436 JLINK_GetHWStatus(...)  returns 0x00 (0001ms, 0343ms total)
T4258 000:446 JLINK_GetNumBPUnits(Type = 0xFFFFFF00)  returns 0x06 (0000ms, 0343ms total)
T4258 000:446 JLINK_GetNumBPUnits(Type = 0xF0)  returns 0x2000 (0000ms, 0343ms total)
T4258 000:446 JLINK_GetNumWPUnits()  returns 0x04 (0000ms, 0343ms total)
T4258 000:456 JLINK_GetSpeed()  returns 0x12C0 (0000ms, 0343ms total)
T4258 000:463 JLINK_ReadMemU32(0xE000E004, 0x0001 Items, ...) -- CPU_ReadMem(4 bytes @ 0xE000E004) - Data: 02 00 00 00  returns 0x01 (0000ms, 0343ms total)
T4258 000:463 JLINK_ReadMemU32(0xE000E004, 0x0001 Items, ...) -- CPU_ReadMem(4 bytes @ 0xE000E004) - Data: 02 00 00 00  returns 0x01 (0001ms, 0344ms total)
T4258 000:464 JLINK_WriteMem(0xE0001000, 0x001C Bytes, ...) - Data: 01 00 00 00 00 00 00 00 00 00 00 00 00 00 00 00 ... -- CPU_WriteMem(28 bytes @ 0xE0001000)  returns 0x1C (0002ms, 0346ms total)
T4258 000:466 JLINK_ReadMem (0xE0001000, 0x001C Bytes, ...) -- CPU_ReadMem(28 bytes @ 0xE0001000) - Data: 01 00 00 40 00 00 00 00 00 00 00 00 00 00 00 00 ...  returns 0x00 (0001ms, 0347ms total)
T4258 000:467 JLINK_Halt()  returns 0x00 (0000ms, 0347ms total)
T4258 000:467 JLINK_IsHalted()  returns TRUE (0000ms, 0347ms total)
T4258 000:469 JLINK_WriteMem(0x20000000, 0x0180 Bytes, ...) - Data: 00 BE 0A E0 0D 78 2D 06 68 40 08 24 40 00 00 D3 ... -- CPU_WriteMem(384 bytes @ 0x20000000)  returns 0x180 (0005ms, 0352ms total)
T4258 000:474 JLINK_WriteReg(R0, 0x08000000)  returns 0x00 (0000ms, 0352ms total)
T4258 000:474 JLINK_WriteReg(R1, 0x0A037A00)  returns 0x00 (0000ms, 0352ms total)
T4258 000:474 JLINK_WriteReg(R2, 0x00000001)  returns 0x00 (0000ms, 0352ms total)
T4258 000:474 JLINK_WriteReg(R3, 0x00000000)  returns 0x00 (0000ms, 0352ms total)
T4258 000:474 JLINK_WriteReg(R4, 0x00000000)  returns 0x00 (0000ms, 0352ms total)
T4258 000:474 JLINK_WriteReg(R5, 0x00000000)  returns 0x00 (0000ms, 0352ms total)
T4258 000:474 JLINK_WriteReg(R6, 0x00000000)  returns 0x00 (0000ms, 0352ms total)
T4258 000:474 JLINK_WriteReg(R7, 0x00000000)  returns 0x00 (0000ms, 0352ms total)
T4258 000:474 JLINK_WriteReg(R8, 0x00000000)  returns 0x00 (0000ms, 0352ms total)
T4258 000:474 JLINK_WriteReg(R9, 0x2000017C)  returns 0x00 (0000ms, 0352ms total)
T4258 000:474 JLINK_WriteReg(R10, 0x00000000)  returns 0x00 (0000ms, 0352ms total)
T4258 000:474 JLINK_WriteReg(R11, 0x00000000)  returns 0x00 (0000ms, 0352ms total)
T4258 000:474 JLINK_WriteReg(R12, 0x00000000)  returns 0x00 (0000ms, 0352ms total)
T4258 000:474 JLINK_WriteReg(R13 (SP), 0x20001000)  returns 0x00 (0000ms, 0352ms total)
T4258 000:474 JLINK_WriteReg(R14, 0x20000001)  returns 0x00 (0000ms, 0352ms total)
T4258 000:474 JLINK_WriteReg(R15 (PC), 0x20000054)  returns 0x00 (0000ms, 0352ms total)
T4258 000:474 JLINK_WriteReg(XPSR, 0x01000000)  returns 0x00 (0000ms, 0352ms total)
T4258 000:474 JLINK_WriteReg(MSP, 0x20001000)  returns 0x00 (0000ms, 0352ms total)
T4258 000:474 JLINK_WriteReg(PSP, 0x20001000)  returns 0x00 (0000ms, 0352ms total)
T4258 000:474 JLINK_WriteReg(CFBP, 0x00000000)  returns 0x00 (0000ms, 0352ms total)
T4258 000:474 JLINK_SetBPEx(Addr = 0x20000000, Type = 0xFFFFFFF2) -- CPU_ReadMem(2 bytes @ 0x20000000)  returns 0x00000001 (0001ms, 0353ms total)
T4258 000:475 JLINK_Go() -- CPU_WriteMem(2 bytes @ 0x20000000) -- CPU_ReadMem(4 bytes @ 0xE0001000) -- CPU_WriteMem(4 bytes @ 0xE0002008) -- CPU_WriteMem(4 bytes @ 0xE000200C) -- CPU_WriteMem(4 bytes @ 0xE0002010) -- CPU_WriteMem(4 bytes @ 0xE0002014) -- CPU_WriteMem(4 bytes @ 0xE0002018) -- CPU_WriteMem(4 bytes @ 0xE000201C) -- CPU_WriteMem(4 bytes @ 0xE0001004) (0007ms, 0360ms total)
T4258 000:482 JLINK_IsHalted() -- CPU_ReadMem(2 bytes @ 0x20000000)  returns TRUE (0005ms, 0365ms total)
T4258 000:487 JLINK_ReadReg(R15 (PC))  returns 0x20000000 (0000ms, 0360ms total)
T4258 000:487 JLINK_ClrBPEx(BPHandle = 0x00000001)  returns 0x00 (0000ms, 0360ms total)
T4258 000:487 JLINK_ReadReg(R0)  returns 0x00000000 (0000ms, 0360ms total)
T4258 000:488 JLINK_WriteReg(R0, 0x08000000)  returns 0x00 (0000ms, 0360ms total)
T4258 000:488 JLINK_WriteReg(R1, 0x00004000)  returns 0x00 (0000ms, 0360ms total)
T4258 000:488 JLINK_WriteReg(R2, 0x000000FF)  returns 0x00 (0000ms, 0360ms total)
T4258 000:488 JLINK_WriteReg(R3, 0x00000000)  returns 0x00 (0000ms, 0360ms total)
T4258 000:488 JLINK_WriteReg(R4, 0x00000000)  returns 0x00 (0000ms, 0360ms total)
T4258 000:488 JLINK_WriteReg(R5, 0x00000000)  returns 0x00 (0000ms, 0360ms total)
T4258 000:488 JLINK_WriteReg(R6, 0x00000000)  returns 0x00 (0000ms, 0360ms total)
T4258 000:488 JLINK_WriteReg(R7, 0x00000000)  returns 0x00 (0000ms, 0360ms total)
T4258 000:488 JLINK_WriteReg(R8, 0x00000000)  returns 0x00 (0000ms, 0360ms total)
T4258 000:488 JLINK_WriteReg(R9, 0x2000017C)  returns 0x00 (0000ms, 0360ms total)
T4258 000:488 JLINK_WriteReg(R10, 0x00000000)  returns 0x00 (0000ms, 0360ms total)
T4258 000:488 JLINK_WriteReg(R11, 0x00000000)  returns 0x00 (0000ms, 0360ms total)
T4258 000:488 JLINK_WriteReg(R12, 0x00000000)  returns 0x00 (0000ms, 0360ms total)
T4258 000:488 JLINK_WriteReg(R13 (SP), 0x20001000)  returns 0x00 (0000ms, 0360ms total)
T4258 000:488 JLINK_WriteReg(R14, 0x20000001)  returns 0x00 (0000ms, 0360ms total)
T4258 000:488 JLINK_WriteReg(R15 (PC), 0x20000020)  returns 0x00 (0000ms, 0360ms total)
T4258 000:488 JLINK_WriteReg(XPSR, 0x01000000)  returns 0x00 (0000ms, 0360ms total)
T4258 000:488 JLINK_WriteReg(MSP, 0x20001000)  returns 0x00 (0000ms, 0360ms total)
T4258 000:488 JLINK_WriteReg(PSP, 0x20001000)  returns 0x00 (0000ms, 0360ms total)
T4258 000:488 JLINK_WriteReg(CFBP, 0x00000000)  returns 0x00 (0000ms, 0360ms total)
T4258 000:488 JLINK_SetBPEx(Addr = 0x20000000, Type = 0xFFFFFFF2)  returns 0x00000002 (0000ms, 0360ms total)
T4258 000:488 JLINK_Go() -- CPU_ReadMem(4 bytes @ 0xE0001000) (0003ms, 0363ms total)
T4258 000:491 JLINK_IsHalted() -- CPU_ReadMem(2 bytes @ 0x20000000)  returns TRUE (0005ms, 0368ms total)
T4258 000:496 JLINK_ReadReg(R15 (PC))  returns 0x20000000 (0000ms, 0363ms total)
T4258 000:496 JLINK_ClrBPEx(BPHandle = 0x00000002)  returns 0x00 (0000ms, 0363ms total)
T4258 000:496 JLINK_ReadReg(R0)  returns 0x00000001 (0000ms, 0363ms total)
T4258 000:496 JLINK_WriteReg(R0, 0x08000000)  returns 0x00 (0000ms, 0363ms total)
T4258 000:496 JLINK_WriteReg(R1, 0x00004000)  returns 0x00 (0000ms, 0363ms total)
T4258 000:496 JLINK_WriteReg(R2, 0x000000FF)  returns 0x00 (0000ms, 0363ms total)
T4258 000:496 JLINK_WriteReg(R3, 0x00000000)  returns 0x00 (0000ms, 0363ms total)
T4258 000:496 JLINK_WriteReg(R4, 0x00000000)  returns 0x00 (0000ms, 0363ms total)
T4258 000:496 JLINK_WriteReg(R5, 0x00000000)  returns 0x00 (0000ms, 0363ms total)
T4258 000:496 JLINK_WriteReg(R6, 0x00000000)  returns 0x00 (0000ms, 0363ms total)
T4258 000:496 JLINK_WriteReg(R7, 0x00000000)  returns 0x00 (0000ms, 0363ms total)
T4258 000:496 JLINK_WriteReg(R8, 0x00000000)  returns 0x00 (0000ms, 0363ms total)
T4258 000:496 JLINK_WriteReg(R9, 0x2000017C)  returns 0x00 (0000ms, 0363ms total)
T4258 000:496 JLINK_WriteReg(R10, 0x00000000)  returns 0x00 (0000ms, 0363ms total)
T4258 000:496 JLINK_WriteReg(R11, 0x00000000)  returns 0x00 (0000ms, 0363ms total)
T4258 000:496 JLINK_WriteReg(R12, 0x00000000)  returns 0x00 (0000ms, 0363ms total)
T4258 000:496 JLINK_WriteReg(R13 (SP), 0x20001000)  returns 0x00 (0000ms, 0363ms total)
T4258 000:496 JLINK_WriteReg(R14, 0x20000001)  returns 0x00 (0000ms, 0363ms total)
T4258 000:496 JLINK_WriteReg(R15 (PC), 0x200000BC)  returns 0x00 (0000ms, 0363ms total)
T4258 000:496 JLINK_WriteReg(XPSR, 0x01000000)  returns 0x00 (0000ms, 0363ms total)
T4258 000:496 JLINK_WriteReg(MSP, 0x20001000)  returns 0x00 (0000ms, 0363ms total)
T4258 000:496 JLINK_WriteReg(PSP, 0x20001000)  returns 0x00 (0000ms, 0363ms total)
T4258 000:496 JLINK_WriteReg(CFBP, 0x00000000)  returns 0x00 (0000ms, 0363ms total)
T4258 000:496 JLINK_SetBPEx(Addr = 0x20000000, Type = 0xFFFFFFF2)  returns 0x00000003 (0000ms, 0363ms total)
T4258 000:496 JLINK_Go() -- CPU_ReadMem(4 bytes @ 0xE0001000) (0003ms, 0366ms total)
T4258 000:499 JLINK_IsHalted()  returns FALSE (0001ms, 0367ms total)
T4258 000:555 JLINK_IsHalted()  returns FALSE (0000ms, 0366ms total)
T4258 000:557 JLINK_IsHalted()  returns FALSE (0000ms, 0366ms total)
T4258 000:562 JLINK_IsHalted()  returns FALSE (0000ms, 0366ms total)
T4258 000:564 JLINK_IsHalted()  returns FALSE (0000ms, 0366ms total)
T4258 000:566 JLINK_IsHalted()  returns FALSE (0000ms, 0366ms total)
T4258 000:571 JLINK_IsHalted()  returns FALSE (0000ms, 0366ms total)
T4258 000:573 JLINK_IsHalted()  returns FALSE (0000ms, 0366ms total)
T4258 000:579 JLINK_IsHalted()  returns FALSE (0000ms, 0366ms total)
T4258 000:581 JLINK_IsHalted()  returns FALSE (0000ms, 0366ms total)
T4258 000:586 JLINK_IsHalted()  returns FALSE (0000ms, 0366ms total)
T4258 000:588 JLINK_IsHalted()  returns FALSE (0000ms, 0366ms total)
T4258 000:590 JLINK_IsHalted()  returns FALSE (0000ms, 0366ms total)
T4258 000:595 JLINK_IsHalted()  returns FALSE (0000ms, 0366ms total)
T4258 000:597 JLINK_IsHalted()  returns FALSE (0000ms, 0366ms total)
T4258 000:602 JLINK_IsHalted()  returns FALSE (0000ms, 0366ms total)
T4258 000:609 JLINK_IsHalted()  returns FALSE (0000ms, 0366ms total)
T4258 000:611 JLINK_IsHalted()  returns FALSE (0000ms, 0366ms total)
T4258 000:613 JLINK_IsHalted()  returns FALSE (0000ms, 0366ms total)
T4258 000:618 JLINK_IsHalted()  returns FALSE (0000ms, 0366ms total)
T4258 000:620 JLINK_IsHalted()  returns FALSE (0000ms, 0366ms total)
T4258 000:636 JLINK_IsHalted()  returns FALSE (0000ms, 0366ms total)
T4258 000:638 JLINK_IsHalted()  returns FALSE (0000ms, 0366ms total)
T4258 000:643 JLINK_IsHalted()  returns FALSE (0000ms, 0366ms total)
T4258 000:645 JLINK_IsHalted()  returns FALSE (0000ms, 0366ms total)
T4258 000:650 JLINK_IsHalted()  returns FALSE (0000ms, 0366ms total)
T4258 000:652 JLINK_IsHalted()  returns FALSE (0000ms, 0366ms total)
T4258 000:654 JLINK_IsHalted()  returns FALSE (0000ms, 0366ms total)
T4258 000:659 JLINK_IsHalted()  returns FALSE (0000ms, 0366ms total)
T4258 000:661 JLINK_IsHalted()  returns FALSE (0000ms, 0366ms total)
T4258 000:666 JLINK_IsHalted()  returns FALSE (0000ms, 0366ms total)
T4258 000:668 JLINK_IsHalted()  returns FALSE (0000ms, 0366ms total)
T4258 000:670 JLINK_IsHalted()  returns FALSE (0000ms, 0366ms total)
T4258 000:677 JLINK_IsHalted()  returns FALSE (0000ms, 0366ms total)
T4258 000:683 JLINK_IsHalted()  returns FALSE (0000ms, 0366ms total)
T4258 000:685 JLINK_IsHalted()  returns FALSE (0000ms, 0366ms total)
T4258 000:689 JLINK_IsHalted()  returns FALSE (0000ms, 0366ms total)
T4258 000:691 JLINK_IsHalted()  returns FALSE (0000ms, 0366ms total)
T4258 000:693 JLINK_IsHalted()  returns FALSE (0000ms, 0366ms total)
T4258 000:700 JLINK_IsHalted()  returns FALSE (0000ms, 0366ms total)
T4258 000:702 JLINK_IsHalted()  returns FALSE (0000ms, 0366ms total)
T4258 000:707 JLINK_IsHalted()  returns FALSE (0000ms, 0366ms total)
T4258 000:709 JLINK_IsHalted()  returns FALSE (0000ms, 0366ms total)
T4258 000:711 JLINK_IsHalted()  returns FALSE (0000ms, 0366ms total)
T4258 000:723 JLINK_IsHalted()  returns FALSE (0000ms, 0366ms total)
T4258 000:725 JLINK_IsHalted()  returns FALSE (0000ms, 0366ms total)
T4258 000:731 JLINK_IsHalted()  returns FALSE (0000ms, 0366ms total)
T4258 000:733 JLINK_IsHalted()  returns FALSE (0000ms, 0366ms total)
T4258 000:735 JLINK_IsHalted()  returns FALSE (0000ms, 0366ms total)
T4258 000:740 JLINK_IsHalted()  returns FALSE (0000ms, 0366ms total)
T4258 000:742 JLINK_IsHalted()  returns FALSE (0000ms, 0366ms total)
T4258 000:747 JLINK_IsHalted()  returns FALSE (0000ms, 0366ms total)
T4258 000:749 JLINK_IsHalted()  returns FALSE (0000ms, 0366ms total)
T4258 000:751 JLINK_IsHalted()  returns FALSE (0000ms, 0366ms total)
T4258 000:756 JLINK_IsHalted()  returns FALSE (0000ms, 0366ms total)
T4258 000:758 JLINK_IsHalted()  returns FALSE (0000ms, 0366ms total)
T4258 000:764 JLINK_IsHalted()  returns FALSE (0000ms, 0366ms total)
T4258 000:766 JLINK_IsHalted()  returns FALSE (0000ms, 0366ms total)
T4258 000:768 JLINK_IsHalted()  returns FALSE (0000ms, 0366ms total)
T4258 000:770 JLINK_IsHalted()  returns FALSE (0000ms, 0366ms total)
T4258 000:772 JLINK_IsHalted()  returns FALSE (0000ms, 0366ms total)
T4258 000:774 JLINK_IsHalted()  returns FALSE (0000ms, 0366ms total)
T4258 000:782 JLINK_IsHalted()  returns FALSE (0000ms, 0366ms total)
T4258 000:787 JLINK_IsHalted()  returns FALSE (0000ms, 0366ms total)
T4258 000:789 JLINK_IsHalted()  returns FALSE (0000ms, 0366ms total)
T4258 000:791 JLINK_IsHalted()  returns FALSE (0000ms, 0366ms total)
T4258 000:797 JLINK_IsHalted()  returns FALSE (0000ms, 0366ms total)
T4258 000:799 JLINK_IsHalted()  returns FALSE (0000ms, 0366ms total)
T4258 000:804 JLINK_IsHalted()  returns FALSE (0000ms, 0366ms total)
T4258 000:806 JLINK_IsHalted()  returns FALSE (0000ms, 0366ms total)
T4258 000:811 JLINK_IsHalted() -- CPU_ReadMem(2 bytes @ 0x20000000)  returns TRUE (0004ms, 0370ms total)
T4258 000:815 JLINK_ReadReg(R15 (PC))  returns 0x20000000 (0000ms, 0366ms total)
T4258 000:815 JLINK_ClrBPEx(BPHandle = 0x00000003)  returns 0x00 (0000ms, 0366ms total)
T4258 000:815 JLINK_ReadReg(R0)  returns 0x00000000 (0000ms, 0366ms total)
T4258 000:816 JLINK_WriteReg(R0, 0x08004000)  returns 0x00 (0000ms, 0366ms total)
T4258 000:816 JLINK_WriteReg(R1, 0x00004000)  returns 0x00 (0000ms, 0366ms total)
T4258 000:816 JLINK_WriteReg(R2, 0x000000FF)  returns 0x00 (0000ms, 0366ms total)
T4258 000:816 JLINK_WriteReg(R3, 0x00000000)  returns 0x00 (0000ms, 0366ms total)
T4258 000:816 JLINK_WriteReg(R4, 0x00000000)  returns 0x00 (0000ms, 0366ms total)
T4258 000:816 JLINK_WriteReg(R5, 0x00000000)  returns 0x00 (0000ms, 0366ms total)
T4258 000:816 JLINK_WriteReg(R6, 0x00000000)  returns 0x00 (0000ms, 0366ms total)
T4258 000:816 JLINK_WriteReg(R7, 0x00000000)  returns 0x00 (0000ms, 0366ms total)
T4258 000:816 JLINK_WriteReg(R8, 0x00000000)  returns 0x00 (0000ms, 0366ms total)
T4258 000:816 JLINK_WriteReg(R9, 0x2000017C)  returns 0x00 (0000ms, 0366ms total)
T4258 000:816 JLINK_WriteReg(R10, 0x00000000)  returns 0x00 (0000ms, 0366ms total)
T4258 000:816 JLINK_WriteReg(R11, 0x00000000)  returns 0x00 (0000ms, 0366ms total)
T4258 000:816 JLINK_WriteReg(R12, 0x00000000)  returns 0x00 (0000ms, 0366ms total)
T4258 000:816 JLINK_WriteReg(R13 (SP), 0x20001000)  returns 0x00 (0000ms, 0366ms total)
T4258 000:816 JLINK_WriteReg(R14, 0x20000001)  returns 0x00 (0000ms, 0366ms total)
T4258 000:816 JLINK_WriteReg(R15 (PC), 0x20000020)  returns 0x00 (0000ms, 0366ms total)
T4258 000:816 JLINK_WriteReg(XPSR, 0x01000000)  returns 0x00 (0000ms, 0366ms total)
T4258 000:816 JLINK_WriteReg(MSP, 0x20001000)  returns 0x00 (0000ms, 0366ms total)
T4258 000:816 JLINK_WriteReg(PSP, 0x20001000)  returns 0x00 (0000ms, 0366ms total)
T4258 000:816 JLINK_WriteReg(CFBP, 0x00000000)  returns 0x00 (0000ms, 0366ms total)
T4258 000:816 JLINK_SetBPEx(Addr = 0x20000000, Type = 0xFFFFFFF2)  returns 0x00000004 (0000ms, 0366ms total)
T4258 000:816 JLINK_Go() -- CPU_ReadMem(4 bytes @ 0xE0001000) (0003ms, 0369ms total)
T4258 000:819 JLINK_IsHalted() -- CPU_ReadMem(2 bytes @ 0x20000000)  returns TRUE (0005ms, 0374ms total)
T4258 000:824 JLINK_ReadReg(R15 (PC))  returns 0x20000000 (0000ms, 0369ms total)
T4258 000:824 JLINK_ClrBPEx(BPHandle = 0x00000004)  returns 0x00 (0000ms, 0369ms total)
T4258 000:824 JLINK_ReadReg(R0)  returns 0x00000001 (0000ms, 0369ms total)
T4258 000:824 JLINK_WriteReg(R0, 0x08004000)  returns 0x00 (0000ms, 0369ms total)
T4258 000:824 JLINK_WriteReg(R1, 0x00004000)  returns 0x00 (0000ms, 0369ms total)
T4258 000:824 JLINK_WriteReg(R2, 0x000000FF)  returns 0x00 (0000ms, 0369ms total)
T4258 000:824 JLINK_WriteReg(R3, 0x00000000)  returns 0x00 (0000ms, 0369ms total)
T4258 000:824 JLINK_WriteReg(R4, 0x00000000)  returns 0x00 (0000ms, 0369ms total)
T4258 000:824 JLINK_WriteReg(R5, 0x00000000)  returns 0x00 (0000ms, 0369ms total)
T4258 000:824 JLINK_WriteReg(R6, 0x00000000)  returns 0x00 (0000ms, 0369ms total)
T4258 000:824 JLINK_WriteReg(R7, 0x00000000)  returns 0x00 (0000ms, 0369ms total)
T4258 000:824 JLINK_WriteReg(R8, 0x00000000)  returns 0x00 (0000ms, 0369ms total)
T4258 000:824 JLINK_WriteReg(R9, 0x2000017C)  returns 0x00 (0000ms, 0369ms total)
T4258 000:824 JLINK_WriteReg(R10, 0x00000000)  returns 0x00 (0000ms, 0369ms total)
T4258 000:824 JLINK_WriteReg(R11, 0x00000000)  returns 0x00 (0000ms, 0369ms total)
T4258 000:824 JLINK_WriteReg(R12, 0x00000000)  returns 0x00 (0000ms, 0369ms total)
T4258 000:824 JLINK_WriteReg(R13 (SP), 0x20001000)  returns 0x00 (0000ms, 0369ms total)
T4258 000:824 JLINK_WriteReg(R14, 0x20000001)  returns 0x00 (0000ms, 0369ms total)
T4258 000:824 JLINK_WriteReg(R15 (PC), 0x200000BC)  returns 0x00 (0000ms, 0369ms total)
T4258 000:824 JLINK_WriteReg(XPSR, 0x01000000)  returns 0x00 (0000ms, 0369ms total)
T4258 000:824 JLINK_WriteReg(MSP, 0x20001000)  returns 0x00 (0000ms, 0369ms total)
T4258 000:824 JLINK_WriteReg(PSP, 0x20001000)  returns 0x00 (0000ms, 0369ms total)
T4258 000:824 JLINK_WriteReg(CFBP, 0x00000000)  returns 0x00 (0000ms, 0369ms total)
T4258 000:824 JLINK_SetBPEx(Addr = 0x20000000, Type = 0xFFFFFFF2)  returns 0x00000005 (0000ms, 0369ms total)
T4258 000:824 JLINK_Go() -- CPU_ReadMem(4 bytes @ 0xE0001000) (0003ms, 0372ms total)
T4258 000:827 JLINK_IsHalted()  returns FALSE (0001ms, 0373ms total)
T4258 000:838 JLINK_IsHalted()  returns FALSE (0000ms, 0372ms total)
T4258 000:844 JLINK_IsHalted()  returns FALSE (0000ms, 0372ms total)
T4258 000:846 JLINK_IsHalted()  returns FALSE (0000ms, 0372ms total)
T4258 000:851 JLINK_IsHalted()  returns FALSE (0000ms, 0372ms total)
T4258 000:853 JLINK_IsHalted()  returns FALSE (0000ms, 0372ms total)
T4258 000:855 JLINK_IsHalted()  returns FALSE (0000ms, 0372ms total)
T4258 000:860 JLINK_IsHalted()  returns FALSE (0000ms, 0372ms total)
T4258 000:862 JLINK_IsHalted()  returns FALSE (0000ms, 0372ms total)
T4258 000:864 JLINK_IsHalted()  returns FALSE (0000ms, 0372ms total)
T4258 000:866 JLINK_IsHalted()  returns FALSE (0000ms, 0372ms total)
T4258 000:868 JLINK_IsHalted()  returns FALSE (0000ms, 0372ms total)
T4258 000:870 JLINK_IsHalted()  returns FALSE (0000ms, 0372ms total)
T4258 000:875 JLINK_IsHalted()  returns FALSE (0000ms, 0372ms total)
T4258 000:877 JLINK_IsHalted()  returns FALSE (0000ms, 0372ms total)
T4258 000:879 JLINK_IsHalted()  returns FALSE (0000ms, 0372ms total)
T4258 000:884 JLINK_IsHalted()  returns FALSE (0000ms, 0372ms total)
T4258 000:886 JLINK_IsHalted()  returns FALSE (0000ms, 0372ms total)
T4258 000:891 JLINK_IsHalted()  returns FALSE (0000ms, 0372ms total)
T4258 000:893 JLINK_IsHalted()  returns FALSE (0000ms, 0372ms total)
T4258 000:895 JLINK_IsHalted()  returns FALSE (0000ms, 0372ms total)
T4258 000:900 JLINK_IsHalted()  returns FALSE (0000ms, 0372ms total)
T4258 000:902 JLINK_IsHalted()  returns FALSE (0000ms, 0372ms total)
T4258 000:908 JLINK_IsHalted()  returns FALSE (0000ms, 0372ms total)
T4258 000:910 JLINK_IsHalted()  returns FALSE (0000ms, 0372ms total)
T4258 000:915 JLINK_IsHalted()  returns FALSE (0000ms, 0372ms total)
T4258 000:917 JLINK_IsHalted()  returns FALSE (0000ms, 0372ms total)
T4258 000:919 JLINK_IsHalted()  returns FALSE (0000ms, 0372ms total)
T4258 000:925 JLINK_IsHalted()  returns FALSE (0000ms, 0372ms total)
T4258 000:949 JLINK_IsHalted()  returns FALSE (0000ms, 0372ms total)
T4258 000:951 JLINK_IsHalted()  returns FALSE (0000ms, 0372ms total)
T4258 000:956 JLINK_IsHalted()  returns FALSE (0000ms, 0372ms total)
T4258 000:958 JLINK_IsHalted()  returns FALSE (0000ms, 0372ms total)
T4258 000:965 JLINK_IsHalted()  returns FALSE (0000ms, 0372ms total)
T4258 000:967 JLINK_IsHalted()  returns FALSE (0000ms, 0372ms total)
T4258 000:972 JLINK_IsHalted()  returns FALSE (0000ms, 0372ms total)
T4258 000:974 JLINK_IsHalted()  returns FALSE (0000ms, 0372ms total)
T4258 000:980 JLINK_IsHalted()  returns FALSE (0000ms, 0372ms total)
T4258 000:982 JLINK_IsHalted()  returns FALSE (0000ms, 0372ms total)
T4258 000:988 JLINK_IsHalted()  returns FALSE (0000ms, 0372ms total)
T4258 000:990 JLINK_IsHalted()  returns FALSE (0000ms, 0372ms total)
T4258 000:997 JLINK_IsHalted()  returns FALSE (0000ms, 0372ms total)
T4258 001:003 JLINK_IsHalted()  returns FALSE (0000ms, 0372ms total)
T4258 001:006 JLINK_IsHalted()  returns FALSE (0000ms, 0372ms total)
T4258 001:014 JLINK_IsHalted()  returns FALSE (0000ms, 0372ms total)
T4258 001:019 JLINK_IsHalted()  returns FALSE (0000ms, 0372ms total)
T4258 001:021 JLINK_IsHalted()  returns FALSE (0000ms, 0372ms total)
T4258 001:028 JLINK_IsHalted()  returns FALSE (0000ms, 0372ms total)
T4258 001:030 JLINK_IsHalted()  returns FALSE (0000ms, 0372ms total)
T4258 001:038 JLINK_IsHalted()  returns FALSE (0000ms, 0372ms total)
T4258 001:105 JLINK_IsHalted()  returns FALSE (0000ms, 0372ms total)
T4258 001:107 JLINK_IsHalted()  returns FALSE (0000ms, 0372ms total)
T4258 001:109 JLINK_IsHalted()  returns FALSE (0000ms, 0372ms total)
T4258 001:112 JLINK_IsHalted()  returns FALSE (0000ms, 0372ms total)
T4258 001:114 JLINK_IsHalted()  returns FALSE (0000ms, 0372ms total)
T4258 001:116 JLINK_IsHalted()  returns FALSE (0000ms, 0372ms total)
T4258 001:118 JLINK_IsHalted()  returns FALSE (0000ms, 0372ms total)
T4258 001:120 JLINK_IsHalted()  returns FALSE (0000ms, 0372ms total)
T4258 001:122 JLINK_IsHalted()  returns FALSE (0000ms, 0372ms total)
T4258 001:124 JLINK_IsHalted()  returns FALSE (0000ms, 0372ms total)
T4258 001:126 JLINK_IsHalted()  returns FALSE (0000ms, 0372ms total)
T4258 001:134 JLINK_IsHalted()  returns FALSE (0000ms, 0372ms total)
T4258 001:136 JLINK_IsHalted()  returns FALSE (0000ms, 0372ms total)
T4258 001:138 JLINK_IsHalted() -- CPU_ReadMem(2 bytes @ 0x20000000)  returns TRUE (0004ms, 0376ms total)
T4258 001:142 JLINK_ReadReg(R15 (PC))  returns 0x20000000 (0000ms, 0372ms total)
T4258 001:142 JLINK_ClrBPEx(BPHandle = 0x00000005)  returns 0x00 (0000ms, 0372ms total)
T4258 001:142 JLINK_ReadReg(R0)  returns 0x00000000 (0000ms, 0372ms total)
T4258 001:143 JLINK_WriteReg(R0, 0x00000001)  returns 0x00 (0000ms, 0372ms total)
T4258 001:143 JLINK_WriteReg(R1, 0x00004000)  returns 0x00 (0000ms, 0372ms total)
T4258 001:143 JLINK_WriteReg(R2, 0x000000FF)  returns 0x00 (0000ms, 0372ms total)
T4258 001:143 JLINK_WriteReg(R3, 0x00000000)  returns 0x00 (0000ms, 0372ms total)
T4258 001:143 JLINK_WriteReg(R4, 0x00000000)  returns 0x00 (0000ms, 0372ms total)
T4258 001:143 JLINK_WriteReg(R5, 0x00000000)  returns 0x00 (0000ms, 0372ms total)
T4258 001:143 JLINK_WriteReg(R6, 0x00000000)  returns 0x00 (0000ms, 0372ms total)
T4258 001:143 JLINK_WriteReg(R7, 0x00000000)  returns 0x00 (0000ms, 0372ms total)
T4258 001:143 JLINK_WriteReg(R8, 0x00000000)  returns 0x00 (0000ms, 0372ms total)
T4258 001:143 JLINK_WriteReg(R9, 0x2000017C)  returns 0x00 (0000ms, 0372ms total)
T4258 001:143 JLINK_WriteReg(R10, 0x00000000)  returns 0x00 (0000ms, 0372ms total)
T4258 001:143 JLINK_WriteReg(R11, 0x00000000)  returns 0x00 (0000ms, 0372ms total)
T4258 001:143 JLINK_WriteReg(R12, 0x00000000)  returns 0x00 (0000ms, 0372ms total)
T4258 001:143 JLINK_WriteReg(R13 (SP), 0x20001000)  returns 0x00 (0000ms, 0372ms total)
T4258 001:143 JLINK_WriteReg(R14, 0x20000001)  returns 0x00 (0000ms, 0372ms total)
T4258 001:143 JLINK_WriteReg(R15 (PC), 0x20000082)  returns 0x00 (0000ms, 0372ms total)
T4258 001:143 JLINK_WriteReg(XPSR, 0x01000000)  returns 0x00 (0000ms, 0372ms total)
T4258 001:143 JLINK_WriteReg(MSP, 0x20001000)  returns 0x00 (0000ms, 0372ms total)
T4258 001:143 JLINK_WriteReg(PSP, 0x20001000)  returns 0x00 (0000ms, 0372ms total)
T4258 001:143 JLINK_WriteReg(CFBP, 0x00000000)  returns 0x00 (0000ms, 0372ms total)
T4258 001:143 JLINK_SetBPEx(Addr = 0x20000000, Type = 0xFFFFFFF2)  returns 0x00000006 (0000ms, 0372ms total)
T4258 001:143 JLINK_Go() -- CPU_ReadMem(4 bytes @ 0xE0001000) (0003ms, 0375ms total)
T4258 001:146 JLINK_IsHalted() -- CPU_ReadMem(2 bytes @ 0x20000000)  returns TRUE (0005ms, 0380ms total)
T4258 001:151 JLINK_ReadReg(R15 (PC))  returns 0x20000000 (0000ms, 0375ms total)
T4258 001:151 JLINK_ClrBPEx(BPHandle = 0x00000006)  returns 0x00 (0000ms, 0375ms total)
T4258 001:151 JLINK_ReadReg(R0)  returns 0x00000000 (0000ms, 0375ms total)
T4258 001:207 JLINK_WriteMem(0x20000000, 0x0180 Bytes, ...) - Data: 00 BE 0A E0 0D 78 2D 06 68 40 08 24 40 00 00 D3 ... -- CPU_WriteMem(384 bytes @ 0x20000000)  returns 0x180 (0004ms, 0379ms total)
T4258 001:211 JLINK_WriteReg(R0, 0x08000000)  returns 0x00 (0000ms, 0379ms total)
T4258 001:211 JLINK_WriteReg(R1, 0x0A037A00)  returns 0x00 (0000ms, 0379ms total)
T4258 001:211 JLINK_WriteReg(R2, 0x00000002)  returns 0x00 (0000ms, 0379ms total)
T4258 001:211 JLINK_WriteReg(R3, 0x00000000)  returns 0x00 (0000ms, 0379ms total)
T4258 001:211 JLINK_WriteReg(R4, 0x00000000)  returns 0x00 (0000ms, 0379ms total)
T4258 001:211 JLINK_WriteReg(R5, 0x00000000)  returns 0x00 (0000ms, 0379ms total)
T4258 001:211 JLINK_WriteReg(R6, 0x00000000)  returns 0x00 (0000ms, 0379ms total)
T4258 001:211 JLINK_WriteReg(R7, 0x00000000)  returns 0x00 (0000ms, 0379ms total)
T4258 001:211 JLINK_WriteReg(R8, 0x00000000)  returns 0x00 (0000ms, 0379ms total)
T4258 001:211 JLINK_WriteReg(R9, 0x2000017C)  returns 0x00 (0000ms, 0379ms total)
T4258 001:211 JLINK_WriteReg(R10, 0x00000000)  returns 0x00 (0000ms, 0379ms total)
T4258 001:211 JLINK_WriteReg(R11, 0x00000000)  returns 0x00 (0000ms, 0379ms total)
T4258 001:211 JLINK_WriteReg(R12, 0x00000000)  returns 0x00 (0001ms, 0380ms total)
T4258 001:212 JLINK_WriteReg(R13 (SP), 0x20001000)  returns 0x00 (0000ms, 0380ms total)
T4258 001:212 JLINK_WriteReg(R14, 0x20000001)  returns 0x00 (0000ms, 0380ms total)
T4258 001:212 JLINK_WriteReg(R15 (PC), 0x20000054)  returns 0x00 (0000ms, 0380ms total)
T4258 001:212 JLINK_WriteReg(XPSR, 0x01000000)  returns 0x00 (0000ms, 0380ms total)
T4258 001:212 JLINK_WriteReg(MSP, 0x20001000)  returns 0x00 (0000ms, 0380ms total)
T4258 001:212 JLINK_WriteReg(PSP, 0x20001000)  returns 0x00 (0000ms, 0380ms total)
T4258 001:212 JLINK_WriteReg(CFBP, 0x00000000)  returns 0x00 (0000ms, 0380ms total)
T4258 001:212 JLINK_SetBPEx(Addr = 0x20000000, Type = 0xFFFFFFF2) -- CPU_ReadMem(2 bytes @ 0x20000000)  returns 0x00000007 (0001ms, 0381ms total)
T4258 001:213 JLINK_Go() -- CPU_WriteMem(2 bytes @ 0x20000000) -- CPU_ReadMem(4 bytes @ 0xE0001000) (0003ms, 0384ms total)
T4258 001:216 JLINK_IsHalted() -- CPU_ReadMem(2 bytes @ 0x20000000)  returns TRUE (0005ms, 0389ms total)
T4258 001:221 JLINK_ReadReg(R15 (PC))  returns 0x20000000 (0000ms, 0384ms total)
T4258 001:221 JLINK_ClrBPEx(BPHandle = 0x00000007)  returns 0x00 (0000ms, 0384ms total)
T4258 001:221 JLINK_ReadReg(R0)  returns 0x00000000 (0000ms, 0384ms total)
T4258 001:221 JLINK_WriteMem(0x20000180, 0x0400 Bytes, ...) - Data: 68 5C 00 20 2D 03 00 08 C9 2E 00 08 1B 2B 00 08 ... -- CPU_WriteMem(1024 bytes @ 0x20000180)  returns 0x400 (0009ms, 0393ms total)
T4258 001:230 JLINK_WriteReg(R0, 0x08000000)  returns 0x00 (0000ms, 0393ms total)
T4258 001:230 JLINK_WriteReg(R1, 0x00000400)  returns 0x00 (0000ms, 0393ms total)
T4258 001:230 JLINK_WriteReg(R2, 0x20000180)  returns 0x00 (0000ms, 0393ms total)
T4258 001:230 JLINK_WriteReg(R3, 0x00000000)  returns 0x00 (0000ms, 0393ms total)
T4258 001:230 JLINK_WriteReg(R4, 0x00000000)  returns 0x00 (0000ms, 0393ms total)
T4258 001:230 JLINK_WriteReg(R5, 0x00000000)  returns 0x00 (0000ms, 0393ms total)
T4258 001:230 JLINK_WriteReg(R6, 0x00000000)  returns 0x00 (0000ms, 0393ms total)
T4258 001:230 JLINK_WriteReg(R7, 0x00000000)  returns 0x00 (0000ms, 0393ms total)
T4258 001:230 JLINK_WriteReg(R8, 0x00000000)  returns 0x00 (0000ms, 0393ms total)
T4258 001:230 JLINK_WriteReg(R9, 0x2000017C)  returns 0x00 (0000ms, 0393ms total)
T4258 001:230 JLINK_WriteReg(R10, 0x00000000)  returns 0x00 (0000ms, 0393ms total)
T4258 001:230 JLINK_WriteReg(R11, 0x00000000)  returns 0x00 (0000ms, 0393ms total)
T4258 001:230 JLINK_WriteReg(R12, 0x00000000)  returns 0x00 (0000ms, 0393ms total)
T4258 001:230 JLINK_WriteReg(R13 (SP), 0x20001000)  returns 0x00 (0000ms, 0393ms total)
T4258 001:230 JLINK_WriteReg(R14, 0x20000001)  returns 0x00 (0000ms, 0393ms total)
T4258 001:230 JLINK_WriteReg(R15 (PC), 0x20000108)  returns 0x00 (0000ms, 0393ms total)
T4258 001:230 JLINK_WriteReg(XPSR, 0x01000000)  returns 0x00 (0000ms, 0393ms total)
T4258 001:230 JLINK_WriteReg(MSP, 0x20001000)  returns 0x00 (0000ms, 0393ms total)
T4258 001:230 JLINK_WriteReg(PSP, 0x20001000)  returns 0x00 (0000ms, 0393ms total)
T4258 001:230 JLINK_WriteReg(CFBP, 0x00000000)  returns 0x00 (0000ms, 0393ms total)
T4258 001:230 JLINK_SetBPEx(Addr = 0x20000000, Type = 0xFFFFFFF2)  returns 0x00000008 (0000ms, 0393ms total)
T4258 001:230 JLINK_Go() -- CPU_ReadMem(4 bytes @ 0xE0001000) (0003ms, 0396ms total)
T4258 001:233 JLINK_IsHalted()  returns FALSE (0001ms, 0397ms total)
T4258 001:242 JLINK_IsHalted() -- CPU_ReadMem(2 bytes @ 0x20000000)  returns TRUE (0004ms, 0400ms total)
T4258 001:246 JLINK_ReadReg(R15 (PC))  returns 0x20000000 (0000ms, 0396ms total)
T4258 001:246 JLINK_ClrBPEx(BPHandle = 0x00000008)  returns 0x00 (0000ms, 0396ms total)
T4258 001:246 JLINK_ReadReg(R0)  returns 0x00000000 (0000ms, 0396ms total)
T4258 001:247 JLINK_WriteMem(0x20000180, 0x0400 Bytes, ...) - Data: 28 68 41 19 A1 42 1C BF 6C 60 70 BD 61 68 69 60 ... -- CPU_WriteMem(1024 bytes @ 0x20000180)  returns 0x400 (0008ms, 0404ms total)
T4258 001:255 JLINK_WriteReg(R0, 0x08000400)  returns 0x00 (0000ms, 0404ms total)
T4258 001:255 JLINK_WriteReg(R1, 0x00000400)  returns 0x00 (0000ms, 0404ms total)
T4258 001:255 JLINK_WriteReg(R2, 0x20000180)  returns 0x00 (0000ms, 0404ms total)
T4258 001:255 JLINK_WriteReg(R3, 0x00000000)  returns 0x00 (0000ms, 0404ms total)
T4258 001:255 JLINK_WriteReg(R4, 0x00000000)  returns 0x00 (0000ms, 0404ms total)
T4258 001:255 JLINK_WriteReg(R5, 0x00000000)  returns 0x00 (0000ms, 0404ms total)
T4258 001:255 JLINK_WriteReg(R6, 0x00000000)  returns 0x00 (0000ms, 0404ms total)
T4258 001:255 JLINK_WriteReg(R7, 0x00000000)  returns 0x00 (0000ms, 0404ms total)
T4258 001:255 JLINK_WriteReg(R8, 0x00000000)  returns 0x00 (0000ms, 0404ms total)
T4258 001:255 JLINK_WriteReg(R9, 0x2000017C)  returns 0x00 (0000ms, 0404ms total)
T4258 001:255 JLINK_WriteReg(R10, 0x00000000)  returns 0x00 (0000ms, 0404ms total)
T4258 001:255 JLINK_WriteReg(R11, 0x00000000)  returns 0x00 (0000ms, 0404ms total)
T4258 001:255 JLINK_WriteReg(R12, 0x00000000)  returns 0x00 (0000ms, 0404ms total)
T4258 001:255 JLINK_WriteReg(R13 (SP), 0x20001000)  returns 0x00 (0000ms, 0404ms total)
T4258 001:255 JLINK_WriteReg(R14, 0x20000001)  returns 0x00 (0000ms, 0404ms total)
T4258 001:255 JLINK_WriteReg(R15 (PC), 0x20000108)  returns 0x00 (0000ms, 0404ms total)
T4258 001:255 JLINK_WriteReg(XPSR, 0x01000000)  returns 0x00 (0000ms, 0404ms total)
T4258 001:255 JLINK_WriteReg(MSP, 0x20001000)  returns 0x00 (0000ms, 0404ms total)
T4258 001:255 JLINK_WriteReg(PSP, 0x20001000)  returns 0x00 (0000ms, 0404ms total)
T4258 001:255 JLINK_WriteReg(CFBP, 0x00000000)  returns 0x00 (0000ms, 0404ms total)
T4258 001:255 JLINK_SetBPEx(Addr = 0x20000000, Type = 0xFFFFFFF2)  returns 0x00000009 (0001ms, 0405ms total)
T4258 001:256 JLINK_Go() -- CPU_ReadMem(4 bytes @ 0xE0001000) (0002ms, 0407ms total)
T4258 001:258 JLINK_IsHalted()  returns FALSE (0001ms, 0408ms total)
T4258 001:264 JLINK_IsHalted() -- CPU_ReadMem(2 bytes @ 0x20000000)  returns TRUE (0004ms, 0411ms total)
T4258 001:268 JLINK_ReadReg(R15 (PC))  returns 0x20000000 (0000ms, 0407ms total)
T4258 001:268 JLINK_ClrBPEx(BPHandle = 0x00000009)  returns 0x00 (0000ms, 0407ms total)
T4258 001:268 JLINK_ReadReg(R0)  returns 0x00000000 (0000ms, 0407ms total)
T4258 001:269 JLINK_WriteMem(0x20000180, 0x0400 Bytes, ...) - Data: 00 20 10 BD 80 01 00 20 2C 45 00 20 7C 01 00 20 ... -- CPU_WriteMem(1024 bytes @ 0x20000180)  returns 0x400 (0008ms, 0415ms total)
T4258 001:277 JLINK_WriteReg(R0, 0x08000800)  returns 0x00 (0000ms, 0415ms total)
T4258 001:277 JLINK_WriteReg(R1, 0x00000400)  returns 0x00 (0000ms, 0415ms total)
T4258 001:277 JLINK_WriteReg(R2, 0x20000180)  returns 0x00 (0000ms, 0415ms total)
T4258 001:277 JLINK_WriteReg(R3, 0x00000000)  returns 0x00 (0000ms, 0415ms total)
T4258 001:277 JLINK_WriteReg(R4, 0x00000000)  returns 0x00 (0000ms, 0415ms total)
T4258 001:277 JLINK_WriteReg(R5, 0x00000000)  returns 0x00 (0000ms, 0415ms total)
T4258 001:277 JLINK_WriteReg(R6, 0x00000000)  returns 0x00 (0000ms, 0415ms total)
T4258 001:277 JLINK_WriteReg(R7, 0x00000000)  returns 0x00 (0000ms, 0415ms total)
T4258 001:277 JLINK_WriteReg(R8, 0x00000000)  returns 0x00 (0000ms, 0415ms total)
T4258 001:277 JLINK_WriteReg(R9, 0x2000017C)  returns 0x00 (0000ms, 0415ms total)
T4258 001:277 JLINK_WriteReg(R10, 0x00000000)  returns 0x00 (0000ms, 0415ms total)
T4258 001:277 JLINK_WriteReg(R11, 0x00000000)  returns 0x00 (0000ms, 0415ms total)
T4258 001:277 JLINK_WriteReg(R12, 0x00000000)  returns 0x00 (0000ms, 0415ms total)
T4258 001:277 JLINK_WriteReg(R13 (SP), 0x20001000)  returns 0x00 (0000ms, 0415ms total)
T4258 001:277 JLINK_WriteReg(R14, 0x20000001)  returns 0x00 (0000ms, 0415ms total)
T4258 001:277 JLINK_WriteReg(R15 (PC), 0x20000108)  returns 0x00 (0000ms, 0415ms total)
T4258 001:277 JLINK_WriteReg(XPSR, 0x01000000)  returns 0x00 (0000ms, 0415ms total)
T4258 001:278 JLINK_WriteReg(MSP, 0x20001000)  returns 0x00 (0000ms, 0415ms total)
T4258 001:278 JLINK_WriteReg(PSP, 0x20001000)  returns 0x00 (0000ms, 0415ms total)
T4258 001:278 JLINK_WriteReg(CFBP, 0x00000000)  returns 0x00 (0000ms, 0415ms total)
T4258 001:278 JLINK_SetBPEx(Addr = 0x20000000, Type = 0xFFFFFFF2)  returns 0x0000000A (0000ms, 0415ms total)
T4258 001:278 JLINK_Go() -- CPU_ReadMem(4 bytes @ 0xE0001000) (0002ms, 0417ms total)
T4258 001:280 JLINK_IsHalted()  returns FALSE (0001ms, 0418ms total)
T4258 001:286 JLINK_IsHalted() -- CPU_ReadMem(2 bytes @ 0x20000000)  returns TRUE (0004ms, 0421ms total)
T4258 001:290 JLINK_ReadReg(R15 (PC))  returns 0x20000000 (0000ms, 0417ms total)
T4258 001:290 JLINK_ClrBPEx(BPHandle = 0x0000000A)  returns 0x00 (0000ms, 0417ms total)
T4258 001:290 JLINK_ReadReg(R0)  returns 0x00000000 (0000ms, 0417ms total)
T4258 001:291 JLINK_WriteMem(0x20000180, 0x0400 Bytes, ...) - Data: 00 3F 00 D1 20 43 1B 4E 36 1D 30 60 36 1D 30 68 ... -- CPU_WriteMem(1024 bytes @ 0x20000180)  returns 0x400 (0008ms, 0425ms total)
T4258 001:299 JLINK_WriteReg(R0, 0x08000C00)  returns 0x00 (0000ms, 0425ms total)
T4258 001:299 JLINK_WriteReg(R1, 0x00000400)  returns 0x00 (0000ms, 0425ms total)
T4258 001:299 JLINK_WriteReg(R2, 0x20000180)  returns 0x00 (0000ms, 0425ms total)
T4258 001:299 JLINK_WriteReg(R3, 0x00000000)  returns 0x00 (0000ms, 0425ms total)
T4258 001:299 JLINK_WriteReg(R4, 0x00000000)  returns 0x00 (0000ms, 0425ms total)
T4258 001:299 JLINK_WriteReg(R5, 0x00000000)  returns 0x00 (0000ms, 0425ms total)
T4258 001:299 JLINK_WriteReg(R6, 0x00000000)  returns 0x00 (0000ms, 0425ms total)
T4258 001:299 JLINK_WriteReg(R7, 0x00000000)  returns 0x00 (0000ms, 0425ms total)
T4258 001:299 JLINK_WriteReg(R8, 0x00000000)  returns 0x00 (0000ms, 0425ms total)
T4258 001:299 JLINK_WriteReg(R9, 0x2000017C)  returns 0x00 (0000ms, 0425ms total)
T4258 001:299 JLINK_WriteReg(R10, 0x00000000)  returns 0x00 (0000ms, 0425ms total)
T4258 001:299 JLINK_WriteReg(R11, 0x00000000)  returns 0x00 (0000ms, 0425ms total)
T4258 001:299 JLINK_WriteReg(R12, 0x00000000)  returns 0x00 (0000ms, 0425ms total)
T4258 001:299 JLINK_WriteReg(R13 (SP), 0x20001000)  returns 0x00 (0000ms, 0425ms total)
T4258 001:299 JLINK_WriteReg(R14, 0x20000001)  returns 0x00 (0000ms, 0425ms total)
T4258 001:299 JLINK_WriteReg(R15 (PC), 0x20000108)  returns 0x00 (0000ms, 0425ms total)
T4258 001:299 JLINK_WriteReg(XPSR, 0x01000000)  returns 0x00 (0000ms, 0425ms total)
T4258 001:299 JLINK_WriteReg(MSP, 0x20001000)  returns 0x00 (0000ms, 0425ms total)
T4258 001:299 JLINK_WriteReg(PSP, 0x20001000)  returns 0x00 (0000ms, 0425ms total)
T4258 001:299 JLINK_WriteReg(CFBP, 0x00000000)  returns 0x00 (0000ms, 0425ms total)
T4258 001:299 JLINK_SetBPEx(Addr = 0x20000000, Type = 0xFFFFFFF2)  returns 0x0000000B (0000ms, 0425ms total)
T4258 001:299 JLINK_Go() -- CPU_ReadMem(4 bytes @ 0xE0001000) (0003ms, 0428ms total)
T4258 001:302 JLINK_IsHalted()  returns FALSE (0001ms, 0429ms total)
T4258 001:309 JLINK_IsHalted() -- CPU_ReadMem(2 bytes @ 0x20000000)  returns TRUE (0004ms, 0432ms total)
T4258 001:313 JLINK_ReadReg(R15 (PC))  returns 0x20000000 (0000ms, 0428ms total)
T4258 001:313 JLINK_ClrBPEx(BPHandle = 0x0000000B)  returns 0x00 (0000ms, 0428ms total)
T4258 001:313 JLINK_ReadReg(R0)  returns 0x00000000 (0000ms, 0428ms total)
T4258 001:314 JLINK_WriteMem(0x20000180, 0x0400 Bytes, ...) - Data: 84 F8 B8 03 00 BF 00 BF EF E7 02 46 01 F0 0F 00 ... -- CPU_WriteMem(1024 bytes @ 0x20000180)  returns 0x400 (0008ms, 0436ms total)
T4258 001:322 JLINK_WriteReg(R0, 0x08001000)  returns 0x00 (0000ms, 0436ms total)
T4258 001:322 JLINK_WriteReg(R1, 0x00000400)  returns 0x00 (0000ms, 0436ms total)
T4258 001:322 JLINK_WriteReg(R2, 0x20000180)  returns 0x00 (0000ms, 0436ms total)
T4258 001:322 JLINK_WriteReg(R3, 0x00000000)  returns 0x00 (0000ms, 0436ms total)
T4258 001:322 JLINK_WriteReg(R4, 0x00000000)  returns 0x00 (0000ms, 0436ms total)
T4258 001:322 JLINK_WriteReg(R5, 0x00000000)  returns 0x00 (0000ms, 0436ms total)
T4258 001:322 JLINK_WriteReg(R6, 0x00000000)  returns 0x00 (0000ms, 0436ms total)
T4258 001:322 JLINK_WriteReg(R7, 0x00000000)  returns 0x00 (0000ms, 0436ms total)
T4258 001:322 JLINK_WriteReg(R8, 0x00000000)  returns 0x00 (0000ms, 0436ms total)
T4258 001:322 JLINK_WriteReg(R9, 0x2000017C)  returns 0x00 (0000ms, 0436ms total)
T4258 001:322 JLINK_WriteReg(R10, 0x00000000)  returns 0x00 (0000ms, 0436ms total)
T4258 001:322 JLINK_WriteReg(R11, 0x00000000)  returns 0x00 (0000ms, 0436ms total)
T4258 001:322 JLINK_WriteReg(R12, 0x00000000)  returns 0x00 (0000ms, 0436ms total)
T4258 001:322 JLINK_WriteReg(R13 (SP), 0x20001000)  returns 0x00 (0000ms, 0436ms total)
T4258 001:322 JLINK_WriteReg(R14, 0x20000001)  returns 0x00 (0000ms, 0436ms total)
T4258 001:322 JLINK_WriteReg(R15 (PC), 0x20000108)  returns 0x00 (0000ms, 0436ms total)
T4258 001:322 JLINK_WriteReg(XPSR, 0x01000000)  returns 0x00 (0000ms, 0436ms total)
T4258 001:322 JLINK_WriteReg(MSP, 0x20001000)  returns 0x00 (0000ms, 0436ms total)
T4258 001:322 JLINK_WriteReg(PSP, 0x20001000)  returns 0x00 (0000ms, 0436ms total)
T4258 001:322 JLINK_WriteReg(CFBP, 0x00000000)  returns 0x00 (0000ms, 0436ms total)
T4258 001:322 JLINK_SetBPEx(Addr = 0x20000000, Type = 0xFFFFFFF2)  returns 0x0000000C (0000ms, 0436ms total)
T4258 001:322 JLINK_Go() -- CPU_ReadMem(4 bytes @ 0xE0001000) (0003ms, 0439ms total)
T4258 001:325 JLINK_IsHalted()  returns FALSE (0001ms, 0440ms total)
T4258 001:331 JLINK_IsHalted() -- CPU_ReadMem(2 bytes @ 0x20000000)  returns TRUE (0004ms, 0443ms total)
T4258 001:335 JLINK_ReadReg(R15 (PC))  returns 0x20000000 (0000ms, 0439ms total)
T4258 001:335 JLINK_ClrBPEx(BPHandle = 0x0000000C)  returns 0x00 (0000ms, 0439ms total)
T4258 001:335 JLINK_ReadReg(R0)  returns 0x00000000 (0000ms, 0439ms total)
T4258 001:336 JLINK_WriteMem(0x20000180, 0x0400 Bytes, ...) - Data: 00 EB 45 10 81 60 09 F0 10 00 10 28 05 D1 10 21 ... -- CPU_WriteMem(1024 bytes @ 0x20000180)  returns 0x400 (0008ms, 0447ms total)
T4258 001:344 JLINK_WriteReg(R0, 0x08001400)  returns 0x00 (0000ms, 0447ms total)
T4258 001:344 JLINK_WriteReg(R1, 0x00000400)  returns 0x00 (0000ms, 0447ms total)
T4258 001:344 JLINK_WriteReg(R2, 0x20000180)  returns 0x00 (0000ms, 0447ms total)
T4258 001:344 JLINK_WriteReg(R3, 0x00000000)  returns 0x00 (0000ms, 0447ms total)
T4258 001:344 JLINK_WriteReg(R4, 0x00000000)  returns 0x00 (0000ms, 0447ms total)
T4258 001:344 JLINK_WriteReg(R5, 0x00000000)  returns 0x00 (0000ms, 0447ms total)
T4258 001:344 JLINK_WriteReg(R6, 0x00000000)  returns 0x00 (0000ms, 0447ms total)
T4258 001:344 JLINK_WriteReg(R7, 0x00000000)  returns 0x00 (0000ms, 0447ms total)
T4258 001:344 JLINK_WriteReg(R8, 0x00000000)  returns 0x00 (0000ms, 0447ms total)
T4258 001:344 JLINK_WriteReg(R9, 0x2000017C)  returns 0x00 (0000ms, 0447ms total)
T4258 001:344 JLINK_WriteReg(R10, 0x00000000)  returns 0x00 (0001ms, 0448ms total)
T4258 001:345 JLINK_WriteReg(R11, 0x00000000)  returns 0x00 (0000ms, 0448ms total)
T4258 001:345 JLINK_WriteReg(R12, 0x00000000)  returns 0x00 (0000ms, 0448ms total)
T4258 001:345 JLINK_WriteReg(R13 (SP), 0x20001000)  returns 0x00 (0000ms, 0448ms total)
T4258 001:345 JLINK_WriteReg(R14, 0x20000001)  returns 0x00 (0000ms, 0448ms total)
T4258 001:345 JLINK_WriteReg(R15 (PC), 0x20000108)  returns 0x00 (0000ms, 0448ms total)
T4258 001:345 JLINK_WriteReg(XPSR, 0x01000000)  returns 0x00 (0000ms, 0448ms total)
T4258 001:345 JLINK_WriteReg(MSP, 0x20001000)  returns 0x00 (0000ms, 0448ms total)
T4258 001:345 JLINK_WriteReg(PSP, 0x20001000)  returns 0x00 (0000ms, 0448ms total)
T4258 001:345 JLINK_WriteReg(CFBP, 0x00000000)  returns 0x00 (0000ms, 0448ms total)
T4258 001:345 JLINK_SetBPEx(Addr = 0x20000000, Type = 0xFFFFFFF2)  returns 0x0000000D (0000ms, 0448ms total)
T4258 001:345 JLINK_Go() -- CPU_ReadMem(4 bytes @ 0xE0001000) (0003ms, 0451ms total)
T4258 001:348 JLINK_IsHalted()  returns FALSE (0001ms, 0452ms total)
T4258 001:356 JLINK_IsHalted() -- CPU_ReadMem(2 bytes @ 0x20000000)  returns TRUE (0004ms, 0455ms total)
T4258 001:360 JLINK_ReadReg(R15 (PC))  returns 0x20000000 (0000ms, 0451ms total)
T4258 001:360 JLINK_ClrBPEx(BPHandle = 0x0000000D)  returns 0x00 (0000ms, 0451ms total)
T4258 001:360 JLINK_ReadReg(R0)  returns 0x00000000 (0000ms, 0451ms total)
T4258 001:361 JLINK_WriteMem(0x20000180, 0x0400 Bytes, ...) - Data: 08 D1 20 46 FF F7 6A FB 20 68 40 69 00 F0 80 40 ... -- CPU_WriteMem(1024 bytes @ 0x20000180)  returns 0x400 (0008ms, 0459ms total)
T4258 001:369 JLINK_WriteReg(R0, 0x08001800)  returns 0x00 (0000ms, 0459ms total)
T4258 001:369 JLINK_WriteReg(R1, 0x00000400)  returns 0x00 (0000ms, 0459ms total)
T4258 001:369 JLINK_WriteReg(R2, 0x20000180)  returns 0x00 (0000ms, 0459ms total)
T4258 001:369 JLINK_WriteReg(R3, 0x00000000)  returns 0x00 (0000ms, 0459ms total)
T4258 001:369 JLINK_WriteReg(R4, 0x00000000)  returns 0x00 (0000ms, 0459ms total)
T4258 001:369 JLINK_WriteReg(R5, 0x00000000)  returns 0x00 (0000ms, 0459ms total)
T4258 001:369 JLINK_WriteReg(R6, 0x00000000)  returns 0x00 (0000ms, 0459ms total)
T4258 001:369 JLINK_WriteReg(R7, 0x00000000)  returns 0x00 (0000ms, 0459ms total)
T4258 001:369 JLINK_WriteReg(R8, 0x00000000)  returns 0x00 (0000ms, 0459ms total)
